freq	S(3,3)	S(3,4)	S(4,3)	S(4,4)
1.00000000000000000E8	-0.001133969	-39.97576004	5.472313889	-1.048869043
2.00000000000000000E8	-0.004531741	-33.96083819	5.46700685	-1.053467008
3.00000000000000000E8	-0.010180947	-30.44846029	5.458177877	-1.061114422
4.00000000000000000E8	-0.018061107	-27.96287796	5.44585096	-1.071787638
5.00000000000000000E8	-0.028143819	-26.04158177	5.430059396	-1.08545384
6.00000000000000000E8	-0.040393026	-24.47853009	5.410845508	-1.102071325
7.00000000000000000E8	-0.054765351	-23.16378546	5.388260288	-1.121589853
8.00000000000000000E8	-0.071210494	-22.03169612	5.362362977	-1.143951073
9.00000000000000000E8	-0.089671675	-21.03988637	5.333220586	-1.169089
1.00000000000000000E9	-0.110086141	-20.15939374	5.300907364	-1.196930543
1.10000000000000010E9	-0.132385692	-19.3695324	5.265504227	-1.227396076
1.20000000000000000E9	-0.156497253	-18.65500132	5.227098148	-1.26040005
1.30000000000000000E9	-0.18234346	-18.00415421	5.185781529	-1.295851615
1.39999999999999990E9	-0.209843259	-17.40791274	5.141651551	-1.333655271
1.50000000000000000E9	-0.238912511	-16.85905579	5.094809521	-1.373711523
1.60000000000000010E9	-0.269464596	-16.35173878	5.045360215	-1.415917529
1.70000000000000000E9	-0.301411003	-15.88115916	4.993411235	-1.460167745
1.80000000000000000E9	-0.334661902	-15.44331787	4.939072376	-1.506354558
1.89999999999999990E9	-0.369126703	-15.03484545	4.882455021	-1.554368888
2.00000000000000000E9	-0.404714571	-14.65287305	4.82367155	-1.604100775
2.10000000000000010E9	-0.441334927	-14.29493493	4.762834796	-1.655439922
2.20000000000000020E9	-0.478897901	-13.95889382	4.700057522	-1.708276218
2.29999999999999980E9	-0.517314754	-13.64288302	4.635451942	-1.762500211
2.39999999999999990E9	-0.556498262	-13.34526076	4.569129279	-1.818003551
2.50000000000000000E9	-0.596363055	-13.06457406	4.50119936	-1.874679389
2.60000000000000010E9	-0.63682592	-12.79952965	4.431770261	-1.932422734
2.70000000000000020E9	-0.677806068	-12.54897041	4.360947977	-1.991130776
2.79999999999999980E9	-0.719225352	-12.3118562	4.288836147	-2.050703163
2.89999999999999990E9	-0.761008463	-12.08724792	4.215535808	-2.111042239
3.00000000000000000E9	-0.803083073	-11.8742944	4.141145187	-2.172053254
3.10000000000000010E9	-0.845379963	-11.67222143	4.06575953	-2.233644529
3.20000000000000020E9	-0.887833103	-11.48032242	3.989470966	-2.295727591
3.29999999999999980E9	-0.930379715	-11.29795063	3.912368395	-2.358217282
3.39999999999999990E9	-0.972960306	-11.12451245	3.834537411	-2.421031832
3.50000000000000000E9	-1.015518673	-10.95946168	3.756060246	-2.484092912
3.60000000000000010E9	-1.058001894	-10.80229461	3.677015745	-2.547325659
3.70000000000000020E9	-1.100360293	-10.65254569	3.59747935	-2.610658683
3.79999999999999980E9	-1.142547395	-10.50978386	3.517523119	-2.674024053
3.89999999999999990E9	-1.184519858	-10.37360927	3.437215744	-2.737357267
4.00000000000000000E9	-1.226237402	-10.24365041	3.356622602	-2.800597208
4.09999999999999960E9	-1.267662721	-10.11956158	3.275805802	-2.863686083
4.20000000000000020E9	-1.308761388	-10.00102065	3.194824256	-2.926569359
4.29999999999999980E9	-1.349501757	-9.887727085	3.113733749	-2.989195683
4.40000000000000040E9	-1.389854852	-9.779400138	3.032587024	-3.051516795
4.50000000000000000E9	-1.429794261	-9.675777265	2.951433871	-3.113487441
4.59999999999999960E9	-1.469296018	-9.576612691	2.870321217	-3.175065274
4.70000000000000020E9	-1.508338493	-9.481676111	2.789293225	-3.236210755
4.79999999999999980E9	-1.546902275	-9.390751524	2.708391391	-3.29688705
4.90000000000000040E9	-1.584970056	-9.303636169	2.627654649	-3.357059927
5.00000000000000000E9	-1.62252652	-9.220139559	2.547119466	-3.416697654
5.09999999999999960E9	-1.659558227	-9.140082604	2.466819952	-3.475770889
5.20000000000000020E9	-1.696053507	-9.063296802	2.386787952	-3.534252578
5.29999999999999980E9	-1.732002351	-8.989623508	2.307053156	-3.592117856
5.40000000000000040E9	-1.767396306	-8.91891326	2.227643189	-3.649343937
5.50000000000000000E9	-1.802228377	-8.851025155	2.148583713	-3.705910025
5.59999999999999960E9	-1.836492926	-8.785826279	2.069898518	-3.761797208
5.70000000000000020E9	-1.870185583	-8.723191185	1.991609619	-3.816988366
5.79999999999999980E9	-1.903303152	-8.663001405	1.91373734	-3.871468081
5.90000000000000040E9	-1.935843527	-8.605145002	1.836300404	-3.925222547
6.00000000000000000E9	-1.967805613	-8.549516153	1.759316015	-3.978239479
6.09999999999999960E9	-1.999189243	-8.496014767	1.682799938	-4.030508039
6.20000000000000020E9	-2.02999511	-8.444546127	1.606766581	-4.082018746
6.29999999999999980E9	-2.060224691	-8.395020558	1.531229064	-4.132763407
6.40000000000000040E9	-2.089880187	-8.347353119	1.456199294	-4.182735038
6.50000000000000000E9	-2.118964456	-8.301463317	1.381688029	-4.231927797
6.59999999999999960E9	-2.147480957	-8.257274841	1.307704952	-4.280336913
6.70000000000000020E9	-2.175433691	-8.21471531	1.234258721	-4.327958626
6.79999999999999980E9	-2.202827155	-8.173716045	1.161357042	-4.374790119
6.90000000000000040E9	-2.229666289	-8.134211851	1.089006714	-4.420829464
7.00000000000000000E9	-2.25595643	-8.096140812	1.01721369	-4.466075567
7.09999999999999960E9	-2.281703275	-8.059444107	0.945983126	-4.510528111
7.20000000000000020E9	-2.306912834	-8.024065829	0.87531943	-4.554187507
7.29999999999999980E9	-2.331591397	-7.989952822	0.805226306	-4.597054846
7.40000000000000040E9	-2.355745501	-7.957054527	0.735706802	-4.639131855
7.50000000000000000E9	-2.379381895	-7.925322832	0.666763349	-4.680420851
7.59999999999999960E9	-2.402507512	-7.894711943	0.598397799	-4.720924702
7.70000000000000020E9	-2.42512944	-7.86517825	0.530611465	-4.760646789
7.79999999999999980E9	-2.447254901	-7.836680212	0.463405154	-4.799590967
7.90000000000000040E9	-2.468891221	-7.809178242	0.396779201	-4.83776153
8.00000000000000000E9	-2.490045814	-7.782634603	0.330733503	-4.875163181
8.09999999999999960E9	-2.51072616	-7.757013307	0.265267543	-4.911801001
8.19999999999999930E9	-2.530939786	-7.732280024	0.200380423	-4.947680414
8.30000000000000070E9	-2.550694251	-7.708401994	0.136070888	-4.982807169
8.40000000000000040E9	-2.56999713	-7.685347943	0.072337352	-5.017187303
8.50000000000000000E9	-2.588856	-7.663088007	0.009177921	-5.050827126
8.59999999999999960E9	-2.607278427	-7.641593657	-0.053409583	-5.083733192
8.69999999999999930E9	-2.625271953	-7.620837633	-0.115427607	-5.115912278
8.80000000000000070E9	-2.642844091	-7.600793877	-0.176878838	-5.147371367
8.90000000000000040E9	-2.660002307	-7.581437472	-0.237766194	-5.178117622
9.00000000000000000E9	-2.67675402	-7.562744584	-0.298092798	-5.208158375
9.09999999999999960E9	-2.693106589	-7.544692411	-0.35786197	-5.237501105
9.19999999999999930E9	-2.709067307	-7.527259127	-0.417077203	-5.266153422
9.30000000000000070E9	-2.724643396	-7.510423835	-0.475742157	-5.294123054
9.40000000000000040E9	-2.739842	-7.494166522	-0.533860636	-5.321417834
9.50000000000000000E9	-2.754670183	-7.478468018	-0.591436586	-5.34804568
9.59999999999999960E9	-2.769134922	-7.463309949	-0.648474072	-5.374014589
9.69999999999999930E9	-2.783243102	-7.448674705	-0.704977274	-5.399332624
9.80000000000000070E9	-2.79700152	-7.434545396	-0.760950476	-5.424007901
9.90000000000000040E9	-2.810416872	-7.420905827	-0.81639805	-5.448048578
1.00000000000000000E10	-2.823495759	-7.407740456	-0.871324454	-5.47146285
1.01000000000000000E10	-2.836244681	-7.395034369	-0.925734218	-5.494258932
1.02000000000000000E10	-2.848670038	-7.382773249	-0.979631939	-5.516445061
1.03000000000000000E10	-2.860778126	-7.370943346	-1.033022272	-5.538029477
1.04000000000000000E10	-2.872575137	-7.359531454	-1.08590992	-5.559020423
1.05000000000000000E10	-2.88406716	-7.348524885	-1.138299634	-5.579426137
1.06000000000000010E10	-2.895260179	-7.337911443	-1.190196198	-5.599254841
1.06999999999999980E10	-2.906160074	-7.327679404	-1.241604431	-5.618514742
1.08000000000000010E10	-2.916772618	-7.317817497	-1.292529175	-5.63721402
1.09000000000000010E10	-2.927103482	-7.308314876	-1.342975296	-5.655360827
1.10000000000000010E10	-2.937158231	-7.29916111	-1.392947672	-5.672963279
1.10999999999999990E10	-2.946942328	-7.290346158	-1.442451194	-5.690029454
1.11999999999999990E10	-2.956461131	-7.281860354	-1.491490761	-5.706567387
1.13000000000000010E10	-2.965719899	-7.273694393	-1.540071271	-5.722585066
1.14000000000000010E10	-2.974723787	-7.265839311	-1.588197625	-5.738090427
1.14999999999999990E10	-2.983477851	-7.258286472	-1.635874719	-5.753091355
1.15999999999999990E10	-2.991987048	-7.251027556	-1.683107439	-5.767595674
1.16999999999999990E10	-3.000256238	-7.244054541	-1.729900663	-5.781611152
1.18000000000000020E10	-3.008290182	-7.237359695	-1.776259254	-5.795145492
1.18999999999999990E10	-3.016093548	-7.230935561	-1.822188059	-5.808206334
1.20000000000000000E10	-3.023670909	-7.224774944	-1.867691908	-5.82080125
1.21000000000000000E10	-3.031026746	-7.218870904	-1.912775609	-5.832937745
1.22000000000000000E10	-3.038165448	-7.213216744	-1.957443948	-5.844623251
1.23000000000000000E10	-3.045091315	-7.207805997	-2.001701685	-5.85586513
1.24000000000000000E10	-3.051808558	-7.20263242	-2.045553554	-5.866670668
1.25000000000000000E10	-3.058321303	-7.197689984	-2.089004262	-5.877047079
1.26000000000000000E10	-3.064633589	-7.192972866	-2.132058484	-5.8870015
1.27000000000000000E10	-3.070749372	-7.188475436	-2.174720867	-5.896540989
1.28000000000000000E10	-3.076672527	-7.184192257	-2.216996024	-5.90567253
1.29000000000000000E10	-3.082406846	-7.18011807	-2.258888533	-5.914403024
1.30000000000000000E10	-3.087956044	-7.176247792	-2.30040294	-5.922739296
1.31000000000000010E10	-3.093323759	-7.172576507	-2.341543753	-5.93068809
1.31999999999999980E10	-3.09851355	-7.169099458	-2.382315447	-5.93825607
1.33000000000000010E10	-3.103528904	-7.165812045	-2.422722455	-5.945449819
1.34000000000000010E10	-3.108373235	-7.162709813	-2.462769177	-5.952275839
1.35000000000000010E10	-3.113049885	-7.159788451	-2.50245997	-5.958740552
1.35999999999999990E10	-3.117562126	-7.157043787	-2.541799154	-5.964850299
1.36999999999999990E10	-3.121913161	-7.154471778	-2.58079101	-5.970611337
1.38000000000000010E10	-3.126106126	-7.152068509	-2.619439777	-5.976029846
1.39000000000000010E10	-3.130144092	-7.149830186	-2.657749653	-5.981111922
1.39999999999999990E10	-3.134030066	-7.147753135	-2.695724799	-5.985863581
1.40999999999999990E10	-3.137766991	-7.145833792	-2.733369329	-5.990290759
1.41999999999999990E10	-3.14135775	-7.144068704	-2.77068732	-5.99439931
1.43000000000000020E10	-3.144805164	-7.142454521	-2.807682806	-5.99819501
1.43999999999999990E10	-3.148111996	-7.140987995	-2.844359778	-6.001683553
1.45000000000000000E10	-3.151280952	-7.139665975	-2.880722187	-6.004870557
1.46000000000000000E10	-3.154314681	-7.138485405	-2.91677394	-6.007761557
1.47000000000000000E10	-3.157215778	-7.137443316	-2.952518904	-6.010362013
1.48000000000000000E10	-3.159986782	-7.136536829	-2.987960903	-6.012677304
1.49000000000000000E10	-3.162630183	-7.135763148	-3.023103718	-6.014712735
1.50000000000000000E10	-3.165148417	-7.135119558	-3.057951089	-6.016473532
1.51000000000000000E10	-3.16754387	-7.134603422	-3.092506715	-6.017964845
1.52000000000000000E10	-3.169818879	-7.134212177	-3.12677425	-6.019191748
1.53000000000000000E10	-3.171975734	-7.133943335	-3.16075731	-6.020159243
1.54000000000000000E10	-3.174016677	-7.133794477	-3.194459466	-6.020872252
1.55000000000000000E10	-3.175943905	-7.133763251	-3.227884251	-6.02133563
1.56000000000000010E10	-3.17775957	-7.133847371	-3.261035154	-6.021554153
1.56999999999999980E10	-3.179465781	-7.134044615	-3.293915624	-6.021532529
1.58000000000000010E10	-3.181064601	-7.134352819	-3.32652907	-6.021275392
1.59000000000000010E10	-3.182558056	-7.134769882	-3.358878858	-6.020787307
1.60000000000000010E10	-3.183948128	-7.135293757	-3.390968316	-6.020072766
1.61000000000000010E10	-3.185236761	-7.135922452	-3.422800731	-6.019136196
1.61999999999999990E10	-3.186425857	-7.136654029	-3.45437935	-6.017981951
1.63000000000000010E10	-3.187517284	-7.137486601	-3.485707381	-6.016614321
1.63999999999999990E10	-3.188512869	-7.138418332	-3.516787991	-6.015037525
1.64999999999999990E10	-3.189414407	-7.139447431	-3.547624309	-6.013255719
1.66000000000000010E10	-3.190223652	-7.140572155	-3.578219428	-6.011272992
1.66999999999999990E10	-3.190942329	-7.141790808	-3.608576398	-6.009093369
1.68000000000000020E10	-3.191572124	-7.143101734	-3.638698233	-6.00672081
1.68999999999999990E10	-3.192114694	-7.14450332	-3.66858791	-6.004159213
1.70000000000000000E10	-3.19257166	-7.145993995	-3.698248368	-6.001412412
1.71000000000000020E10	-3.192944615	-7.147572227	-3.727682509	-5.998484181
1.72000000000000000E10	-3.193235119	-7.149236521	-3.756893197	-5.995378233
1.73000000000000000E10	-3.193444701	-7.15098542	-3.785883261	-5.992098221
1.73999999999999980E10	-3.193574862	-7.152817502	-3.814655494	-5.988647737
1.75000000000000000E10	-3.193627074	-7.154731379	-3.843212652	-5.985030317
1.76000000000000020E10	-3.193602779	-7.1567257	-3.871557458	-5.981249437
1.77000000000000000E10	-3.193503395	-7.158799142	-3.899692597	-5.977308519
1.78000000000000000E10	-3.193330309	-7.160950416	-3.927620721	-5.973210926
1.78999999999999980E10	-3.193084884	-7.163178263	-3.955344448	-5.968959968
1.80000000000000000E10	-3.192768457	-7.165481454	-3.982866362	-5.964558898
1.81000000000000010E10	-3.19238234	-7.167858789	-4.010189012	-5.960010916
1.81999999999999980E10	-3.191927818	-7.170309094	-4.037314916	-5.955319171
1.83000000000000010E10	-3.191406156	-7.172831223	-4.064246557	-5.950486757
1.83999999999999990E10	-3.190818592	-7.175424057	-4.090986386	-5.945516717
1.85000000000000010E10	-3.190166342	-7.178086502	-4.117536824	-5.940412045
1.86000000000000010E10	-3.1894506	-7.180817488	-4.143900257	-5.935175681
1.86999999999999990E10	-3.188672538	-7.183615969	-4.170079042	-5.92981052
1.88000000000000010E10	-3.187833306	-7.186480922	-4.196075503	-5.924319406
1.88999999999999990E10	-3.186934032	-7.189411349	-4.221891936	-5.918705134
1.89999999999999990E10	-3.185975826	-7.19240627	-4.247530604	-5.912970455
1.91000000000000010E10	-3.184959775	-7.195464729	-4.272993741	-5.90711807
1.91999999999999990E10	-3.183886947	-7.198585789	-4.298283551	-5.901150636
1.93000000000000020E10	-3.182758393	-7.201768534	-4.323402211	-5.895070765
1.93999999999999990E10	-3.181575142	-7.205012068	-4.348351864	-5.888881025
1.95000000000000000E10	-3.180338205	-7.208315512	-4.373134631	-5.882583937
1.96000000000000020E10	-3.179048578	-7.211678007	-4.397752598	-5.876181982
1.97000000000000000E10	-3.177707235	-7.215098712	-4.422207829	-5.869677599
1.98000000000000000E10	-3.176315135	-7.218576801	-4.446502357	-5.863073181
1.98999999999999980E10	-3.17487322	-7.222111468	-4.470638188	-5.856371085
2.00000000000000000E10	-3.173382415	-7.225701922	-4.494617303	-5.849573623
2.01000000000000020E10	-3.171843628	-7.229347387	-4.518441654	-5.84268307
2.02000000000000000E10	-3.170257754	-7.233047104	-4.542113168	-5.835701661
2.03000000000000020E10	-3.168625668	-7.236800328	-4.565633747	-5.828631592
2.04000000000000000E10	-3.166948233	-7.24060633	-4.589005266	-5.821475019
2.04999999999999980E10	-3.165226295	-7.244464394	-4.612229575	-5.814234065
2.06000000000000010E10	-3.163460688	-7.248373818	-4.635308499	-5.806910812
2.06999999999999980E10	-3.16165223	-7.252333914	-4.65824384	-5.799507308
2.08000000000000010E10	-3.159801723	-7.256344007	-4.681037374	-5.792025563
2.08999999999999990E10	-3.15790996	-7.260403435	-4.703690852	-5.784467555
2.10000000000000010E10	-3.155977715	-7.264511548	-4.726206005	-5.776835224
2.11000000000000030E10	-3.154005754	-7.268667709	-4.748584537	-5.769130478
2.12000000000000010E10	-3.151994826	-7.272871291	-4.770828131	-5.761355192
2.12999999999999990E10	-3.14994567	-7.277121682	-4.792938446	-5.753511205
2.13999999999999970E10	-3.14785901	-7.281418277	-4.814917119	-5.745600327
2.14999999999999990E10	-3.145735561	-7.285760485	-4.836765766	-5.737624335
2.16000000000000010E10	-3.143576024	-7.290147723	-4.858485979	-5.729584973
2.16999999999999990E10	-3.141381088	-7.294579422	-4.88007933	-5.721483955
2.18000000000000020E10	-3.139151431	-7.29905502	-4.901547369	-5.713322966
2.18999999999999990E10	-3.136887721	-7.303573966	-4.922891625	-5.70510366
2.20000000000000020E10	-3.134590613	-7.308135719	-4.944113607	-5.69682766
2.21000000000000000E10	-3.132260752	-7.312739746	-4.965214802	-5.688496562
2.21999999999999980E10	-3.129898774	-7.317385525	-4.986196679	-5.680111934
2.23000000000000000E10	-3.127505301	-7.322072541	-5.007060684	-5.671675315
2.23999999999999980E10	-3.125080948	-7.32680029	-5.027808246	-5.663188215
2.25000000000000000E10	-3.122626318	-7.331568274	-5.048440775	-5.65465212
2.26000000000000020E10	-3.120142006	-7.336376004	-5.068959658	-5.646068486
2.27000000000000000E10	-3.117628596	-7.341223001	-5.089366267	-5.637438746
2.28000000000000020E10	-3.115086663	-7.346108792	-5.109661955	-5.628764305
2.29000000000000000E10	-3.112516772	-7.351032911	-5.129848054	-5.620046544
2.29999999999999980E10	-3.10991948	-7.355994901	-5.14992588	-5.611286817
2.31000000000000010E10	-3.107295335	-7.360994312	-5.169896732	-5.602486456
2.31999999999999980E10	-3.104644876	-7.366030701	-5.189761888	-5.593646768
2.33000000000000010E10	-3.101968632	-7.371103632	-5.209522611	-5.584769034
2.33999999999999990E10	-3.099267126	-7.376212677	-5.229180147	-5.575854516
2.35000000000000010E10	-3.09654087	-7.381357411	-5.248735724	-5.56690445
2.36000000000000030E10	-3.093790371	-7.38653742	-5.268190555	-5.55792005
2.37000000000000010E10	-3.091016126	-7.391752295	-5.287545834	-5.548902507
2.37999999999999990E10	-3.088218623	-7.39700163	-5.30680274	-5.539852992
2.38999999999999970E10	-3.085398346	-7.40228503	-5.325962436	-5.530772655
2.39999999999999990E10	-3.082555768	-7.407602102	-5.34502607	-5.521662621
2.41000000000000010E10	-3.079691355	-7.412952462	-5.363994773	-5.512523999
2.41999999999999990E10	-3.076805568	-7.418335728	-5.382869662	-5.503357874
2.43000000000000020E10	-3.073898859	-7.423751528	-5.401651837	-5.494165314
2.43999999999999990E10	-3.070971673	-7.429199492	-5.420342384	-5.484947364
2.45000000000000020E10	-3.068024447	-7.434679256	-5.438942374	-5.475705052
2.46000000000000000E10	-3.065057615	-7.440190462	-5.457452866	-5.466439387
2.46999999999999980E10	-3.0620716	-7.445732756	-5.4758749	-5.457151357
2.48000000000000000E10	-3.059066821	-7.45130579	-5.494209505	-5.447841934
2.48999999999999980E10	-3.056043689	-7.456909221	-5.512457695	-5.438512071
2.50000000000000000E10	-3.053002611	-7.46254271	-5.530620471	-5.429162703
2.51000000000000020E10	-3.049943985	-7.468205922	-5.54869882	-5.419794748
2.52000000000000000E10	-3.046868204	-7.473898528	-5.566693715	-5.410409106
2.53000000000000020E10	-3.043775656	-7.479620203	-5.584606116	-5.40100666
2.54000000000000000E10	-3.040666721	-7.485370627	-5.602436972	-5.391588278
2.54999999999999980E10	-3.037541775	-7.491149482	-5.620187215	-5.38215481
2.56000000000000010E10	-3.034401187	-7.496956456	-5.637857768	-5.372707091
2.56999999999999980E10	-3.031245322	-7.502791242	-5.655449541	-5.363245938
2.58000000000000010E10	-3.028074537	-7.508653534	-5.67296343	-5.353772156
2.58999999999999990E10	-3.024889187	-7.514543034	-5.690400319	-5.344286531
2.60000000000000010E10	-3.021689617	-7.520459443	-5.707761083	-5.334789838
2.61000000000000030E10	-3.018476171	-7.526402471	-5.725046581	-5.325282833
2.62000000000000010E10	-3.015249186	-7.532371827	-5.742257663	-5.31576626
2.62999999999999990E10	-3.012008994	-7.538367227	-5.759395167	-5.306240849
2.63999999999999970E10	-3.008755921	-7.544388389	-5.776459919	-5.296707315
2.64999999999999990E10	-3.00549029	-7.550435034	-5.793452736	-5.287166359
2.66000000000000010E10	-3.002212419	-7.556506889	-5.81037442	-5.277618669
